RTDS Simulation, 0, 1999
6,6A,0D
1,IBURAvn,,,Amps,1.03976E-4,-0.492941,0,0,65535,1.0,1.0,P
2,IBURBvn,,,Amps,1.57328E-5,-0.894366,0,0,65535,1.0,1.0,P
3,IBURCvn,,,Amps,1.61009E-5,-0.94033,0,0,65535,1.0,1.0,P
4,IBURAnn,,,Amps,2.55779E-12,-8.39509E-8,0,0,65535,1.0,1.0,P
5,IBURBnn,,,Amps,2.56091E-12,-8.38711E-8,0,0,65535,1.0,1.0,P
6,IBURCnn,,,Amps,2.55574E-12,-8.36499E-8,0,0,65535,1.0,1.0,P
50.0
1
4000.0,8000
22/03/2019,13:02:36.556000
22/03/2019,13:02:37.156000
ASCII
1
1,0,4741,56846,58402,32820,32738,32743
2,250,4741,56846,58402,32821,32737,32742
3,500,4741,56846,58402,32823,32737,32742
4,750,4741,56846,58402,32824,32736,32741
5,1000,4741,56846,58402,32825,32736,32740
6,1250,4741,56847,58402,32826,32736,32739
7,1500,4741,56847,58402,32827,32736,32738
8,1750,4741,56847,58402,32828,32736,32737
9,2000,4741,56847,58402,32829,32736,32736
10,2250,4741,56847,58402,32830,32736,32735
11,2500,4741,56847,58402,32831,32736,32734
12,2750,4741,56847,58402,32832,32736,32733
13,3000,4740,56847,58402,32832,32736,32732
14,3250,4740,56847,58402,32833,32737,32731
15,3500,4740,56847,58401,32834,32737,32730
16,3750,4740,56847,58401,32834,32738,32729
17,4000,4740,56847,58401,32835,32739,32728
18,4250,4740,56847,58401,32835,32739,32726
19,4500,4740,56847,58401,32835,32740,32725
20,4750,4740,56847,58401,32836,32741,32724
21,5000,4740,56847,58401,32836,32742,32723
22,5250,4740,56847,58401,32836,32743,32722
23,5500,4740,56847,58401,32836,32744,32721
24,5750,4740,56847,58401,32836,32745,32720
25,6000,4740,56847,58401,32835,32746,32720
26,6250,4740,56847,58402,32835,32747,32719
27,6500,4740,56847,58402,32835,32748,32718
28,6750,4740,56847,58402,32834,32749,32717
29,7000,4740,56847,58402,32834,32751,32717
30,7250,4740,56847,58402,32833,32752,32716
31,7500,4740,56847,58402,32832,32753,32716
32,7750,4740,56847,58402,32831,32754,32716
33,8000,4740,56847,58402,32831,32755,32715
34,8250,4740,56847,58402,32830,32756,32715
35,8500,4740,56847,58402,32829,32757,32715
36,8750,4740,56847,58402,32828,32758,32715
37,9000,4740,56847,58402,32827,32759,32715
38,9250,4740,56847,58402,32826,32760,32715
39,9500,4740,56847,58402,32824,32761,32716
40,9750,4740,56847,58402,32823,32761,32716
41,10000,4740,56847,58402,32822,32762,32717
42,10250,4740,56847,58402,32821,32763,32717
43,10500,4740,56847,58402,32820,32763,32718
44,10750,4740,56847,58402,32819,32764,32718
45,11000,4740,56847,58402,32818,32764,32719
46,11250,4740,56847,58402,32816,32764,32720
47,11500,4740,56847,58402,32815,32765,32721
48,11750,4740,56847,58402,32814,32765,32722
49,12000,4740,56847,58402,32813,32765,32723
50,12250,4740,56847,58402,32812,32765,32724
51,12500,4740,56847,58402,32812,32764,32725
52,12750,4740,56847,58402,32811,32764,32726
53,13000,4740,56847,58402,32810,32764,32727
54,13250,4740,56847,58403,32809,32763,32728
55,13500,4740,56847,58403,32809,32763,32730
56,13750,4740,56847,58403,32808,32762,32731
57,14000,4740,56847,58403,32808,32761,32732
58,14250,4740,56847,58403,32807,32761,32733
59,14500,4740,56847,58403,32807,32760,32734
60,14750,4740,56847,58403,32807,32759,32735
61,15000,4740,56847,58403,32807,32758,32736
62,15250,4740,56846,58403,32807,32757,32737
63,15500,4740,56846,58403,32807,32756,32738
64,15750,4740,56846,58403,32807,32755,32739
65,16000,4740,56846,58403,32807,32754,32740
66,16250,4740,56846,58403,32807,32753,32741
67,16500,4740,56846,58403,32808,32752,32741
68,16750,4740,56846,58402,32808,32751,32742
69,17000,4740,56846,58402,32809,32749,32743
70,17250,4740,56846,58402,32810,32748,32743
71,17500,4740,56846,58402,32810,32747,32743
72,17750,4740,56846,58402,32811,32746,32744
73,18000,4740,56846,58402,32812,32745,32744
74,18250,4740,56846,58402,32813,32744,32744
75,18500,4740,56846,58402,32814,32743,32744
76,18750,4740,56846,58402,32815,32742,32744
77,19000,4740,56846,58402,32816,32741,32744
78,19250,4740,56846,58402,32817,32740,32744
79,19500,4740,56846,58402,32818,32739,32744
80,19750,4740,56846,58402,32819,32739,32743
81,20000,4741,56846,58402,32820,32738,32743
82,20250,4741,56846,58402,32821,32737,32742
83,20500,4741,56846,58402,32823,32737,32742
84,20750,4741,56846,58402,32824,32736,32741
85,21000,4741,56846,58402,32825,32736,32740
86,21250,4741,56847,58402,32826,32736,32739
87,21500,4741,56847,58402,32827,32736,32738
88,21750,4741,56847,58402,32828,32736,32737
89,22000,4741,56847,58402,32829,32736,32736
90,22250,4741,56847,58402,32830,32736,32735
91,22500,4741,56847,58402,32831,32736,32734
92,22750,4741,56847,58402,32832,32736,32733
93,23000,4740,56847,58402,32832,32736,32732
94,23250,4740,56847,58402,32833,32737,32731
95,23500,4740,56847,58401,32834,32737,32730
96,23750,4740,56847,58401,32834,32738,32729
97,24000,4740,56847,58401,32835,32739,32728
98,24250,4740,56847,58401,32835,32739,32726
99,24500,4740,56847,58401,32835,32740,32725
100,24750,4740,56847,58401,32836,32741,32724
101,25000,4740,56847,58401,32836,32742,32723
102,25250,4740,56847,58401,32836,32743,32722
103,25500,4740,56847,58401,32836,32744,32721
104,25750,4740,56847,58401,32836,32745,32720
105,26000,4740,56847,58401,32835,32746,32720
106,26250,4740,56847,58402,32835,32747,32719
107,26500,4740,56847,58402,32835,32748,32718
108,26750,4740,56847,58402,32834,32749,32717
109,27000,4740,56847,58402,32834,32751,32717
110,27250,4740,56847,58402,32833,32752,32716
111,27500,4740,56847,58402,32832,32753,32716
112,27750,4740,56847,58402,32831,32754,32716
113,28000,4740,56847,58402,32830,32755,32715
114,28250,4740,56847,58402,32830,32756,32715
115,28500,4740,56847,58402,32829,32757,32715
116,28750,4740,56847,58402,32828,32758,32715
117,29000,4740,56847,58402,32827,32759,32715
118,29250,4740,56847,58402,32825,32760,32715
119,29500,4740,56847,58402,32824,32761,32716
120,29750,4740,56847,58402,32823,32761,32716
121,30000,4740,56847,58402,32822,32762,32717
122,30250,4740,56847,58402,32821,32763,32717
123,30500,4740,56847,58402,32820,32763,32718
124,30750,4740,56847,58402,32819,32764,32718
125,31000,4740,56847,58402,32818,32764,32719
126,31250,4740,56847,58402,32816,32764,32720
127,31500,4740,56847,58402,32815,32765,32721
128,31750,4740,56847,58402,32814,32765,32722
129,32000,4740,56847,58402,32813,32765,32723
130,32250,4740,56847,58402,32812,32765,32724
131,32500,4740,56847,58402,32812,32764,32725
132,32750,4740,56847,58402,32811,32764,32726
133,33000,4740,56847,58402,32810,32764,32727
134,33250,4740,56847,58403,32809,32763,32728
135,33500,4740,56847,58403,32809,32763,32730
136,33750,4740,56847,58403,32808,32762,32731
137,34000,4740,56847,58403,32808,32761,32732
138,34250,4740,56847,58403,32807,32761,32733
139,34500,4740,56847,58403,32807,32760,32734
140,34750,4740,56847,58403,32807,32759,32735
141,35000,4740,56847,58403,32807,32758,32736
142,35250,4740,56846,58403,32807,32757,32737
143,35500,4740,56846,58403,32807,32756,32738
144,35750,4740,56846,58403,32807,32755,32739
145,36000,4740,56846,58403,32807,32754,32740
146,36250,4740,56846,58403,32807,32753,32741
147,36500,4740,56846,58403,32808,32752,32741
148,36750,4740,56846,58402,32808,32751,32742
149,37000,4740,56846,58402,32809,32749,32743
150,37250,4740,56846,58402,32810,32748,32743
151,37500,4740,56846,58402,32810,32747,32743
152,37750,4740,56846,58402,32811,32746,32744
153,38000,4740,56846,58402,32812,32745,32744
154,38250,4740,56846,58402,32813,32744,32744
155,38500,4740,56846,58402,32814,32743,32744
156,38750,4740,56846,58402,32815,32742,32744
157,39000,4740,56846,58402,32816,32741,32744
158,39250,4740,56846,58402,32817,32740,32744
159,39500,4740,56846,58402,32818,32739,32744
160,39750,4740,56846,58402,32819,32739,32743
161,40000,4741,56846,58402,32820,32738,32743
162,40250,4741,56846,58402,32821,32737,32742
163,40500,4741,56846,58402,32823,32737,32742
164,40750,4741,56846,58402,32824,32736,32741
165,41000,4741,56846,58402,32825,32736,32740
166,41250,4741,56847,58402,32826,32736,32739
167,41500,4741,56847,58402,32827,32736,32738
168,41750,4741,56847,58402,32828,32736,32737
169,42000,4741,56847,58402,32829,32736,32736
170,42250,4741,56847,58402,32830,32736,32735
171,42500,4741,56847,58402,32831,32736,32734
172,42750,4741,56847,58402,32832,32736,32733
173,43000,4740,56847,58402,32832,32736,32732
174,43250,4740,56847,58402,32833,32737,32731
175,43500,4740,56847,58401,32834,32737,32730
176,43750,4740,56847,58401,32834,32738,32729
177,44000,4740,56847,58401,32835,32739,32728
178,44250,4740,56847,58401,32835,32739,32726
179,44500,4740,56847,58401,32835,32740,32725
180,44750,4740,56847,58401,32836,32741,32724
181,45000,4740,56847,58401,32836,32742,32723
182,45250,4740,56847,58401,32836,32743,32722
183,45500,4740,56847,58401,32836,32744,32721
184,45750,4740,56847,58401,32836,32745,32720
185,46000,4740,56847,58401,32835,32746,32720
186,46250,4740,56847,58402,32835,32747,32719
187,46500,4740,56847,58402,32835,32748,32718
188,46750,4740,56847,58402,32834,32749,32717
189,47000,4740,56847,58402,32834,32751,32717
190,47250,4740,56847,58402,32833,32752,32716
191,47500,4740,56847,58402,32832,32753,32716
192,47750,4740,56847,58402,32831,32754,32716
193,48000,4740,56847,58402,32830,32755,32715
194,48250,4740,56847,58402,32830,32756,32715
195,48500,4740,56847,58402,32829,32757,32715
196,48750,4740,56847,58402,32828,32758,32715
197,49000,4740,56847,58402,32827,32759,32715
198,49250,4740,56847,58402,32825,32760,32715
199,49500,4740,56847,58402,32824,32761,32716
200,49750,4740,56847,58402,32823,32761,32716
201,50000,4740,56847,58402,32822,32762,32717
202,50250,4740,56847,58402,32821,32763,32717
203,50500,4740,56847,58402,32820,32763,32718
204,50750,4740,56847,58402,32819,32764,32718
205,51000,4740,56847,58402,32818,32764,32719
206,51250,4740,56847,58402,32816,32764,32720
207,51500,4740,56847,58402,32815,32765,32721
208,51750,4740,56847,58402,32814,32765,32722
209,52000,4740,56847,58402,32813,32765,32723
210,52250,4740,56847,58402,32812,32765,32724
211,52500,4740,56847,58402,32812,32764,32725
212,52750,4740,56847,58402,32811,32764,32726
213,53000,4740,56847,58402,32810,32764,32727
214,53250,4740,56847,58403,32809,32763,32728
215,53500,4740,56847,58403,32809,32763,32730
216,53750,4740,56847,58403,32808,32762,32731
217,54000,4740,56847,58403,32808,32761,32732
218,54250,4740,56847,58403,32807,32761,32733
219,54500,4740,56847,58403,32807,32760,32734
220,54750,4740,56847,58403,32807,32759,32735
221,55000,4740,56847,58403,32807,32758,32736
222,55250,4740,56846,58403,32807,32757,32737
223,55500,4740,56846,58403,32807,32756,32738
224,55750,4740,56846,58403,32807,32755,32739
225,56000,4740,56846,58403,32807,32754,32740
226,56250,4740,56846,58403,32807,32753,32741
227,56500,4740,56846,58403,32808,32752,32741
228,56750,4740,56846,58402,32808,32751,32742
229,57000,4740,56846,58402,32809,32749,32743
230,57250,4740,56846,58402,32810,32748,32743
231,57500,4740,56846,58402,32810,32747,32743
232,57750,4740,56846,58402,32811,32746,32744
233,58000,4740,56846,58402,32812,32745,32744
234,58250,4740,56846,58402,32813,32744,32744
235,58500,4740,56846,58402,32814,32743,32744
236,58750,4740,56846,58402,32815,32742,32744
237,59000,4740,56846,58402,32816,32741,32744
238,59250,4740,56846,58402,32817,32740,32744
239,59500,4740,56846,58402,32818,32739,32744
240,59750,4740,56846,58402,32819,32739,32743
241,60000,4741,56846,58402,32820,32738,32743
242,60250,4741,56846,58402,32821,32737,32742
243,60500,4741,56846,58402,32823,32737,32742
244,60750,4741,56846,58402,32824,32736,32741
245,61000,4741,56846,58402,32825,32736,32740
246,61250,4741,56847,58402,32826,32736,32739
247,61500,4741,56847,58402,32827,32736,32738
248,61750,4741,56847,58402,32828,32736,32737
249,62000,4741,56847,58402,32829,32736,32736
250,62250,4741,56847,58402,32830,32736,32735
251,62500,4741,56847,58402,32831,32736,32734
252,62750,4741,56847,58402,32832,32736,32733
253,63000,4740,56847,58402,32832,32736,32732
254,63250,4740,56847,58402,32833,32737,32731
255,63500,4740,56847,58401,32834,32737,32730
256,63750,4740,56847,58401,32834,32738,32729
257,64000,4740,56847,58401,32835,32739,32728
258,64250,4740,56847,58401,32835,32739,32726
259,64500,4740,56847,58401,32835,32740,32725
260,64750,4740,56847,58401,32836,32741,32724
261,65000,4740,56847,58401,32836,32742,32723
262,65250,4740,56847,58401,32836,32743,32722
263,65500,4740,56847,58401,32836,32744,32721
264,65750,4740,56847,58401,32836,32745,32720
265,66000,4740,56847,58401,32835,32746,32720
266,66250,4740,56847,58402,32835,32747,32719
267,66500,4740,56847,58402,32835,32748,32718
268,66750,4740,56847,58402,32834,32749,32717
269,67000,4740,56847,58402,32834,32751,32717
270,67250,4740,56847,58402,32833,32752,32716
271,67500,4740,56847,58402,32832,32753,32716
272,67750,4740,56847,58402,32831,32754,32716
273,68000,4740,56847,58402,32830,32755,32715
274,68250,4740,56847,58402,32830,32756,32715
275,68500,4740,56847,58402,32829,32757,32715
276,68750,4740,56847,58402,32828,32758,32715
277,69000,4740,56847,58402,32827,32759,32715
278,69250,4740,56847,58402,32825,32760,32715
279,69500,4740,56847,58402,32824,32761,32716
280,69750,4740,56847,58402,32823,32761,32716
281,70000,4740,56847,58402,32822,32762,32717
282,70250,4740,56847,58402,32821,32763,32717
283,70500,4740,56847,58402,32820,32763,32718
284,70750,4740,56847,58402,32819,32764,32718
285,71000,4740,56847,58402,32818,32764,32719
286,71250,4740,56847,58402,32816,32764,32720
287,71500,4740,56847,58402,32815,32765,32721
288,71750,4740,56847,58402,32814,32765,32722
289,72000,4740,56847,58402,32813,32765,32723
290,72250,4740,56847,58402,32812,32765,32724
291,72500,4740,56847,58402,32812,32764,32725
292,72750,4740,56847,58402,32811,32764,32726
293,73000,4740,56847,58402,32810,32764,32727
294,73250,4740,56847,58403,32809,32763,32728
295,73500,4740,56847,58403,32809,32763,32730
296,73750,4740,56847,58403,32808,32762,32731
297,74000,4740,56847,58403,32808,32761,32732
298,74250,4740,56847,58403,32807,32761,32733
299,74500,4740,56847,58403,32807,32760,32734
300,74750,4740,56847,58403,32807,32759,32735
301,75000,4740,56847,58403,32807,32758,32736
302,75250,4740,56846,58403,32807,32757,32737
303,75500,4740,56846,58403,32807,32756,32738
304,75750,4740,56846,58403,32807,32755,32739
305,76000,4740,56846,58403,32807,32754,32740
306,76250,4740,56846,58403,32807,32753,32741
307,76500,4740,56846,58403,32808,32752,32741
308,76750,4740,56846,58402,32808,32751,32742
309,77000,4740,56846,58402,32809,32749,32743
310,77250,4740,56846,58402,32810,32748,32743
311,77500,4740,56846,58402,32810,32747,32743
312,77750,4740,56846,58402,32811,32746,32744
313,78000,4740,56846,58402,32812,32745,32744
314,78250,4740,56846,58402,32813,32744,32744
315,78500,4740,56846,58402,32814,32743,32744
316,78750,4740,56846,58402,32815,32742,32744
317,79000,4740,56846,58402,32816,32741,32744
318,79250,4740,56846,58402,32817,32740,32744
319,79500,4740,56846,58402,32818,32739,32744
320,79750,4740,56846,58402,32819,32739,32743
321,80000,4741,56846,58402,32820,32738,32743
322,80250,4741,56846,58402,32821,32737,32742
323,80500,4741,56846,58402,32823,32737,32742
324,80750,4741,56846,58402,32824,32736,32741
325,81000,4741,56846,58402,32825,32736,32740
326,81250,4741,56847,58402,32826,32736,32739
327,81500,4741,56847,58402,32827,32736,32738
328,81750,4741,56847,58402,32828,32736,32737
329,82000,4741,56847,58402,32829,32736,32736
330,82250,4741,56847,58402,32830,32736,32735
331,82500,4741,56847,58402,32831,32736,32734
332,82750,4741,56847,58402,32832,32736,32733
333,83000,4740,56847,58402,32832,32736,32732
334,83250,4740,56847,58402,32833,32737,32731
335,83500,4740,56847,58401,32834,32737,32730
336,83750,4740,56847,58401,32834,32738,32729
337,84000,4740,56847,58401,32835,32739,32728
338,84250,4740,56847,58401,32835,32739,32726
339,84500,4740,56847,58401,32835,32740,32725
340,84750,4740,56847,58401,32836,32741,32724
341,85000,4740,56847,58401,32836,32742,32723
342,85250,4740,56847,58401,32836,32743,32722
343,85500,4740,56847,58401,32836,32744,32721
344,85750,4740,56847,58401,32836,32745,32720
345,86000,4740,56847,58401,32835,32746,32720
346,86250,4740,56847,58402,32835,32747,32719
347,86500,4740,56847,58402,32835,32748,32718
348,86750,4740,56847,58402,32834,32749,32717
349,87000,4740,56847,58402,32834,32751,32717
350,87250,4740,56847,58402,32833,32752,32716
351,87500,4740,56847,58402,32832,32753,32716
352,87750,4740,56847,58402,32831,32754,32716
353,88000,4740,56847,58402,32831,32755,32715
354,88250,4740,56847,58402,32830,32756,32715
355,88500,4740,56847,58402,32829,32757,32715
356,88750,4740,56847,58402,32828,32758,32715
357,89000,4740,56847,58402,32827,32759,32715
358,89250,4740,56847,58402,32826,32760,32715
359,89500,4740,56847,58402,32824,32761,32716
360,89750,4740,56847,58402,32823,32761,32716
361,90000,4740,56847,58402,32822,32762,32717
362,90250,4740,56847,58402,32821,32763,32717
363,90500,4740,56847,58402,32820,32763,32718
364,90750,4740,56847,58402,32819,32764,32718
365,91000,4740,56847,58402,32818,32764,32719
366,91250,4740,56847,58402,32817,32764,32720
367,91500,4740,56847,58402,32815,32764,32721
368,91750,4740,56847,58402,32814,32765,32722
369,92000,4740,56847,58402,32813,32765,32723
370,92250,4740,56847,58402,32812,32764,32724
371,92500,4740,56847,58402,32812,32764,32725
372,92750,4740,56847,58402,32811,32764,32726
373,93000,4740,56847,58402,32810,32764,32727
374,93250,4740,56847,58403,32809,32763,32728
375,93500,4740,56847,58403,32809,32763,32729
376,93750,4740,56847,58403,32808,32762,32731
377,94000,4740,56847,58403,32808,32761,32732
378,94250,4740,56847,58403,32807,32761,32733
379,94500,4740,56847,58403,32807,32760,32734
380,94750,4740,56847,58403,32807,32759,32735
381,95000,4740,56847,58403,32807,32758,32736
382,95250,4740,56846,58403,32807,32757,32737
383,95500,4740,56846,58403,32807,32756,32738
384,95750,4740,56846,58403,32807,32755,32739
385,96000,4740,56846,58403,32807,32754,32740
386,96250,4740,56846,58403,32807,32753,32741
387,96500,4740,56846,58403,32808,32752,32741
388,96750,4740,56846,58402,32808,32751,32742
389,97000,4740,56846,58402,32809,32749,32743
390,97250,4740,56846,58402,32810,32748,32743
391,97500,4740,56846,58402,32810,32747,32743
392,97750,4740,56846,58402,32811,32746,32744
393,98000,4740,56846,58402,32812,32745,32744
394,98250,4740,56846,58402,32813,32744,32744
395,98500,4740,56846,58402,32814,32743,32744
396,98750,4740,56846,58402,32815,32742,32744
397,99000,4740,56846,58402,32816,32741,32744
398,99250,4740,56846,58402,32817,32740,32744
399,99500,4740,56846,58402,32818,32739,32744
400,99750,4740,56846,58402,32819,32739,32743
401,100000,4741,56846,58402,32820,32738,32743
402,100250,4741,56846,58402,32821,32737,32742
403,100500,4741,56846,58402,32823,32737,32742
404,100750,4741,56846,58402,32824,32736,32741
405,101000,4741,56846,58402,32825,32736,32740
406,101250,4741,56847,58402,32826,32736,32739
407,101500,4741,56847,58402,32827,32736,32738
408,101750,4741,56847,58402,32828,32736,32737
409,102000,4741,56847,58402,32829,32736,32736
410,102250,4741,56847,58402,32830,32736,32735
411,102500,4741,56847,58402,32831,32736,32734
412,102750,4741,56847,58402,32832,32736,32733
413,103000,4740,56847,58402,32832,32736,32732
414,103250,4740,56847,58402,32833,32737,32731
415,103500,4740,56847,58401,32834,32737,32730
416,103750,4740,56847,58401,32834,32738,32729
417,104000,4740,56847,58401,32835,32739,32728
418,104250,4740,56847,58401,32835,32739,32726
419,104500,4740,56847,58401,32835,32740,32725
420,104750,4740,56847,58401,32836,32741,32724
421,105000,4740,56847,58401,32836,32742,32723
422,105250,4740,56847,58401,32836,32743,32722
423,105500,4740,56847,58401,32836,32744,32721
424,105750,4740,56847,58401,32836,32745,32720
425,106000,4740,56847,58401,32835,32746,32720
426,106250,4740,56847,58402,32835,32747,32719
427,106500,4740,56847,58402,32835,32748,32718
428,106750,4740,56847,58402,32834,32749,32717
429,107000,4740,56847,58402,32834,32751,32717
430,107250,4740,56847,58402,32833,32752,32716
431,107500,4740,56847,58402,32832,32753,32716
432,107750,4740,56847,58402,32831,32754,32716
433,108000,4740,56847,58402,32831,32755,32715
434,108250,4740,56847,58402,32830,32756,32715
435,108500,4740,56847,58402,32829,32757,32715
436,108750,4740,56847,58402,32828,32758,32715
